
T14B0 000:794 SEGGER J-Link V4.15n (beta) Log File (0001ms, 0790ms total)
T14B0 000:794 DLL Compiled: Jun 18 2010 19:55:09 (0001ms, 0790ms total)
T14B0 000:794 Logging started @ 2013-03-13 16:23 (0001ms, 0790ms total)
T14B0 000:795 JLINK_SetWarnOutHandler(...) (0000ms, 0791ms total)
T14B0 000:795 JLINK_OpenEx(...)
Firmware: J-Link ARM V8 compiled May 20 2010 17:07:46
Hardware: V8.00
S/N: 20100214
Feature(s): RDI,FlashDL,FlashBP,JFlash,GDBFull  returns O.K. (0066ms, 0791ms total)
T14B0 000:861 JLINK_SetErrorOutHandler(...) (0001ms, 0857ms total)
T14B0 000:863 JLINK_ExecCommand("ProjectFile = "D:\wifi_open_8385_bare\send_other\user_proj\JLinkSettings.ini"", ...)  returns 0x00 (0000ms, 0858ms total)
T14B0 000:866 JLINK_ExecCommand("DisableConnectionTimeout", ...)  returns 0x00 (0000ms, 0858ms total)
T14B0 000:867 JLINK_TIF_Select(JLINKARM_TIF_JTAG)  returns 0x00 (0000ms, 0858ms total)
T14B0 000:867 JLINK_SetSpeed(2000) (0000ms, 0858ms total)
T14B0 000:867 JLINK_GetHardwareVersion()  returns 0x13880 (0000ms, 0858ms total)
T14B0 000:867 JLINK_GetDLLVersion()  returns 41514 (0000ms, 0858ms total)
T14B0 000:867 JLINK_GetFirmwareString(...) (0000ms, 0858ms total)
T14B0 000:875 JLINK_GetDLLVersion()  returns 41514 (0000ms, 0858ms total)
T14B0 000:875 JLINK_GetCompileDateTime() (0000ms, 0858ms total)
T14B0 000:877 JLINK_GetFirmwareString(...) (0000ms, 0858ms total)
T14B0 000:879 JLINK_GetHardwareVersion()  returns 0x13880 (0000ms, 0858ms total)
T14B0 000:887 JLINK_Reset() >0x2F8 JTAG>TotalIRLen = 9, IRPrint = 0x0011 >0x30 JTAG> >0x210 JTAG> >0x118 JTAG> >0xD8 JTAG> >0x198 JTAG> >0x38 JTAG> >0x118 JTAG> >0xD8 JTAG> >0x2F0 JTAG> >0x2F0 JTAG> >0x198 JTAG> >0x198 JTAG>Found Cortex-M3 r1p1, Little endian. >0xD8 JTAG> >0x240 JTAG> >0x198 JTAG> >0x198 JTAG>TPIU fitted. >0x198 JTAG>ETM fitted. >0x198 JTAG>  FPUnit: 6 code (BP) slots and 2 literal slots >0x198 JTAG> >0x250 JTAG> >0x240 JTAG> >0x280 JTAG> >0x198 JTAG> >0x198 JTAG> >0x240 JTAG>
 >0x240 JTAG> >0x198 JTAG> >0x198 JTAG> >0x17A8 JTAG> >0x240 JTAG> >0x198 JTAG> >0x17A8 JTAG> >0x198 JTAG> -- CPU_WriteMem(4 bytes @ 0xE000EDFC) -- CPU_WriteMem(4 bytes @ 0xE0001028) -- CPU_WriteMem(4 bytes @ 0xE0001038) -- CPU_WriteMem(4 bytes @ 0xE0001048) -- CPU_WriteMem(4 bytes @ 0xE0001058) (0110ms, 0858ms total)
T14B0 000:997 JLINK_GetIdData(...) ScanLen=9 NumDevices=2 aId[0]=0x3BA00477 aIrRead[0]=0 aScanLen[0]=0 aScanRead[0]=0 (0000ms, 0968ms total)
T14B0 000:997 JLINK_JTAG_GetDeviceID(DeviceIndex = 0)  returns 0x3BA00477 (0000ms, 0968ms total)
T14B0 000:997 JLINK_JTAG_GetDeviceInfo(DeviceIndex = 0)  returns 0x00 (0000ms, 0968ms total)
T14B0 000:997 JLINK_JTAG_GetDeviceID(DeviceIndex = 1)  returns 0x6414041 (0000ms, 0968ms total)
T14B0 000:997 JLINK_JTAG_GetDeviceInfo(DeviceIndex = 1)  returns 0x00 (0000ms, 0968ms total)
T14B0 000:997 JLINK_GetDebugInfo(0x100) -- Value=0xE00FF003  returns 0x00 (0000ms, 0968ms total)
T14B0 000:999 JLINK_ReadMem (0xE00FF000, 0x0018 Bytes, ...) -- CPU_ReadMem(24 bytes @ 0xE00FF000) -- Data:  03 F0 F0 FF 03 20 F0 FF 03 30 F0 FF 03 10 F0 FF ...  returns 0x00 (0002ms, 0968ms total)
T14B0 001:001 JLINK_ReadMemU32(0xE000ED00, 0x0001 Items, ...) -- CPU_ReadMem(4 bytes @ 0xE000ED00) -- Data:  31 C2 1F 41  returns 0x01 (0002ms, 0970ms total)
T14B0 001:004 JLINK_Halt()  returns 0x00 (0000ms, 0972ms total)
T14B0 001:004 JLINK_IsHalted()  returns TRUE (0000ms, 0972ms total)
T14B0 001:004 JLINK_ReadMemU32(0xE000EDF0, 0x0001 Items, ...) -- CPU_ReadMem(4 bytes @ 0xE000EDF0) -- Data:  03 00 03 00  returns 0x01 (0001ms, 0972ms total)
T14B0 001:005 JLINK_WriteU32(0xE000EDF0, 0xA05F0003) -- CPU_WriteMem(4 bytes @ 0xE000EDF0)  returns 0x00 (0002ms, 0973ms total)
T14B0 001:007 JLINK_WriteU32(0xE000EDFC, 0x01000000) -- CPU_WriteMem(4 bytes @ 0xE000EDFC)  returns 0x00 (0001ms, 0975ms total)
T14B0 001:008 JLINK_ReadMemU32(0xE0002000, 0x0001 Items, ...) -- CPU_ReadMem(4 bytes @ 0xE0002000) -- Data:  60 02 00 00  returns 0x01 (0001ms, 0976ms total)
T14B0 001:009 JLINK_ReadMemU32(0xE0001000, 0x0001 Items, ...) -- CPU_ReadMem(4 bytes @ 0xE0001000) -- Data:  01 00 00 40  returns 0x01 (0002ms, 0977ms total)
T14B0 001:018 JLINK_ExecCommand("Device = STM32F103RC", ...)
                JLINK_ExecCommand("map ram 0x20000000 - 0x2000BFFF", ...)  returns 0x00 (0000ms, 0000ms total)
                JLINK_AddMirrorAreaEx(Addr = 0x00000000, Size = 0x00000000) (0000ms, 0000ms total)
                returns 0x00 (0001ms, 0979ms total)
T14B0 001:020 JLINK_GetHWStatus(...)  returns 0x00 (0001ms, 0980ms total)
T14B0 001:026 JLINK_GetNumBPUnits(Type = 0xFFFFFF00) >0x2F8 JTAG>TotalIRLen = 9, IRPrint = 0x0011 >0x30 JTAG> >0x210 JTAG> >0x118 JTAG> >0xD8 JTAG> >0x198 JTAG> >0x38 JTAG> >0x118 JTAG> >0xD8 JTAG> >0x2F0 JTAG> >0x2F0 JTAG> >0x198 JTAG> >0x198 JTAG>Found Cortex-M3 r1p1, Little endian. >0xD8 JTAG> >0x240 JTAG> >0x198 JTAG> >0x198 JTAG>TPIU fitted. >0x198 JTAG>ETM fitted. >0x198 JTAG>  FPUnit: 6 code (BP) slots and 2 literal slots >0x198 JTAG>  returns 0x06 (0063ms, 0981ms total)
T14B0 001:089 JLINK_GetNumBPUnits(Type = 0xF0)  returns 0x800 (0000ms, 1044ms total)
T14B0 001:089 JLINK_GetNumWPUnits()  returns 0x04 (0000ms, 1044ms total)
T14B0 001:094 JLINK_GetSpeed()  returns 0x7D0 (0000ms, 1044ms total)
T14B0 001:098 JLINK_ReadMemU32(0xE000E004, 0x0001 Items, ...) -- CPU_ReadMem(4 bytes @ 0xE000E004) -- Data:  01 00 00 00  returns 0x01 (0001ms, 1044ms total)
T14B0 001:099 JLINK_WriteMem(0xE0001000, 0x001C Bytes, ...) -- Data:  01 00 00 00 00 00 00 00 00 00 00 00 00 00 00 00 ... -- CPU_WriteMem(28 bytes @ 0xE0001000)  returns 0x1C (0002ms, 1045ms total)
T14B0 001:101 JLINK_ReadMem (0xE0001000, 0x001C Bytes, ...) -- CPU_ReadMem(28 bytes @ 0xE0001000) -- Data:  01 00 00 40 00 00 00 00 00 00 00 00 00 00 00 00 ...  returns 0x00 (0001ms, 1047ms total)
T14B0 001:102 JLINK_Halt()  returns 0x00 (0000ms, 1048ms total)
T14B0 001:102 JLINK_IsHalted()  returns TRUE (0000ms, 1048ms total)
T14B0 001:105 JLINK_WriteMem(0x20000000, 0x0164 Bytes, ...) -- Data:  00 BE 0A E0 0D 78 2D 06 68 40 08 24 40 00 00 D3 ... -- CPU_WriteMem(356 bytes @ 0x20000000)  returns 0x164 (0004ms, 1048ms total)
T14B0 001:109 JLINK_WriteReg(R0, 0x08000000)  returns 0x00 (0000ms, 1052ms total)
T14B0 001:109 JLINK_WriteReg(R1, 0x007A1200)  returns 0x00 (0000ms, 1052ms total)
T14B0 001:109 JLINK_WriteReg(R2, 0x00000001)  returns 0x00 (0000ms, 1052ms total)
T14B0 001:109 JLINK_WriteReg(R3, 0x00000000)  returns 0x00 (0000ms, 1052ms total)
T14B0 001:109 JLINK_WriteReg(R4, 0x00000000)  returns 0x00 (0000ms, 1052ms total)
T14B0 001:109 JLINK_WriteReg(R5, 0x00000000)  returns 0x00 (0000ms, 1052ms total)
T14B0 001:109 JLINK_WriteReg(R6, 0x00000000)  returns 0x00 (0000ms, 1052ms total)
T14B0 001:109 JLINK_WriteReg(R7, 0x00000000)  returns 0x00 (0000ms, 1052ms total)
T14B0 001:109 JLINK_WriteReg(R8, 0x00000000)  returns 0x00 (0000ms, 1052ms total)
T14B0 001:109 JLINK_WriteReg(R9, 0x20000160)  returns 0x00 (0000ms, 1052ms total)
T14B0 001:109 JLINK_WriteReg(R10, 0x00000000)  returns 0x00 (0000ms, 1052ms total)
T14B0 001:109 JLINK_WriteReg(R11, 0x00000000)  returns 0x00 (0000ms, 1052ms total)
T14B0 001:109 JLINK_WriteReg(R12, 0x00000000)  returns 0x00 (0000ms, 1052ms total)
T14B0 001:109 JLINK_WriteReg(R13, 0x20000800)  returns 0x00 (0000ms, 1052ms total)
T14B0 001:109 JLINK_WriteReg(R14, 0x20000001)  returns 0x00 (0000ms, 1052ms total)
T14B0 001:109 JLINK_WriteReg(R15, 0x20000038)  returns 0x00 (0000ms, 1052ms total)
T14B0 001:109 JLINK_WriteReg(XPSR, 0x01000000)  returns 0x00 (0000ms, 1052ms total)
T14B0 001:109 JLINK_WriteReg(MSP, 0x20000800)  returns 0x00 (0000ms, 1052ms total)
T14B0 001:109 JLINK_WriteReg(PSP, 0x20000800)  returns 0x00 (0000ms, 1052ms total)
T14B0 001:109 JLINK_WriteReg(CFBP, 0x00000000)  returns 0x00 (0000ms, 1052ms total)
T14B0 001:109 JLINK_SetBPEx(Addr = 0x20000000, Type = 0xFFFFFFF2) -- CPU_ReadMem(2 bytes @ 0x20000000)  returns 0x00000001 (0001ms, 1052ms total)
T14B0 001:110 JLINK_Go() -- CPU_WriteMem(2 bytes @ 0x20000000) -- CPU_WriteMem(4 bytes @ 0xE0002008) -- CPU_WriteMem(4 bytes @ 0xE000200C) -- CPU_WriteMem(4 bytes @ 0xE0002010) -- CPU_WriteMem(4 bytes @ 0xE0002014) -- CPU_WriteMem(4 bytes @ 0xE0002018) -- CPU_WriteMem(4 bytes @ 0xE000201C) >0x320 JTAG> >0x218 JTAG> >0x218 JTAG> >0x218 JTAG> >0x218 JTAG> >0x218 JTAG> >0x218 JTAG> >0x218 JTAG> >0x218 JTAG> >0x218 JTAG> >0x218 JTAG> >0x218 JTAG> >0x218 JTAG> >0x218 JTAG> >0x240 JTAG> >0x240 JTAG>
 (0044ms, 1053ms total)
T14B0 001:154 JLINK_IsHalted() >0x198 JTAG> >0x17A8 JTAG> -- CPU_ReadMem(2 bytes @ 0x20000000)  returns TRUE (0009ms, 1097ms total)
T14B0 001:163 JLINK_ReadReg(R15)  returns 0x20000000 (0000ms, 1097ms total)
T14B0 001:163 JLINK_ClrBPEx(BPHandle = 0x00000001)  returns 0x00 (0000ms, 1097ms total)
T14B0 001:163 JLINK_ReadReg(R0)  returns 0x00000000 (0000ms, 1097ms total)
T14B0 001:164 JLINK_WriteReg(R0, 0x08000000)  returns 0x00 (0000ms, 1097ms total)
T14B0 001:164 JLINK_WriteReg(R1, 0x007A1200)  returns 0x00 (0000ms, 1097ms total)
T14B0 001:164 JLINK_WriteReg(R2, 0x00000001)  returns 0x00 (0000ms, 1097ms total)
T14B0 001:164 JLINK_WriteReg(R3, 0x00000000)  returns 0x00 (0000ms, 1097ms total)
T14B0 001:164 JLINK_WriteReg(R4, 0x00000000)  returns 0x00 (0000ms, 1097ms total)
T14B0 001:164 JLINK_WriteReg(R5, 0x00000000)  returns 0x00 (0000ms, 1097ms total)
T14B0 001:164 JLINK_WriteReg(R6, 0x00000000)  returns 0x00 (0000ms, 1097ms total)
T14B0 001:164 JLINK_WriteReg(R7, 0x00000000)  returns 0x00 (0000ms, 1097ms total)
T14B0 001:164 JLINK_WriteReg(R8, 0x00000000)  returns 0x00 (0000ms, 1097ms total)
T14B0 001:164 JLINK_WriteReg(R9, 0x20000160)  returns 0x00 (0000ms, 1097ms total)
T14B0 001:164 JLINK_WriteReg(R10, 0x00000000)  returns 0x00 (0000ms, 1097ms total)
T14B0 001:164 JLINK_WriteReg(R11, 0x00000000)  returns 0x00 (0000ms, 1097ms total)
T14B0 001:164 JLINK_WriteReg(R12, 0x00000000)  returns 0x00 (0000ms, 1097ms total)
T14B0 001:164 JLINK_WriteReg(R13, 0x20000800)  returns 0x00 (0000ms, 1097ms total)
T14B0 001:164 JLINK_WriteReg(R14, 0x20000001)  returns 0x00 (0000ms, 1097ms total)
T14B0 001:164 JLINK_WriteReg(R15, 0x2000007C)  returns 0x00 (0000ms, 1097ms total)
T14B0 001:164 JLINK_WriteReg(XPSR, 0x01000000)  returns 0x00 (0000ms, 1097ms total)
T14B0 001:164 JLINK_WriteReg(MSP, 0x20000800)  returns 0x00 (0000ms, 1097ms total)
T14B0 001:164 JLINK_WriteReg(PSP, 0x20000800)  returns 0x00 (0000ms, 1097ms total)
T14B0 001:164 JLINK_WriteReg(CFBP, 0x00000000)  returns 0x00 (0000ms, 1097ms total)
T14B0 001:164 JLINK_SetBPEx(Addr = 0x20000000, Type = 0xFFFFFFF2)  returns 0x00000002 (0000ms, 1097ms total)
T14B0 001:164 JLINK_Go() -- CPU_WriteMem(4 bytes @ 0xE0002008) -- CPU_WriteMem(4 bytes @ 0xE000200C) -- CPU_WriteMem(4 bytes @ 0xE0002010) -- CPU_WriteMem(4 bytes @ 0xE0002014) -- CPU_WriteMem(4 bytes @ 0xE0002018) -- CPU_WriteMem(4 bytes @ 0xE000201C) >0x310 JTAG> >0x218 JTAG> >0x218 JTAG> >0x218 JTAG> >0x240 JTAG> >0x240 JTAG> (0021ms, 1097ms total)
T14B0 001:185 JLINK_IsHalted() >0x198 JTAG>  returns FALSE (0002ms, 1118ms total)
T14B0 001:238 JLINK_IsHalted() >0x198 JTAG> >0x17A8 JTAG> -- CPU_ReadMem(2 bytes @ 0x20000000)  returns TRUE (0009ms, 1118ms total)
T14B0 001:247 JLINK_ReadReg(R15)  returns 0x20000000 (0000ms, 1118ms total)
T14B0 001:247 JLINK_ClrBPEx(BPHandle = 0x00000002)  returns 0x00 (0000ms, 1118ms total)
T14B0 001:247 JLINK_ReadReg(R0)  returns 0x00000000 (0000ms, 1118ms total)
T14B0 001:300 JLINK_WriteReg(R0, 0x00000001)  returns 0x00 (0000ms, 1118ms total)
T14B0 001:300 JLINK_WriteReg(R1, 0x007A1200)  returns 0x00 (0000ms, 1118ms total)
T14B0 001:300 JLINK_WriteReg(R2, 0x00000001)  returns 0x00 (0000ms, 1118ms total)
T14B0 001:300 JLINK_WriteReg(R3, 0x00000000)  returns 0x00 (0000ms, 1118ms total)
T14B0 001:300 JLINK_WriteReg(R4, 0x00000000)  returns 0x00 (0000ms, 1118ms total)
T14B0 001:300 JLINK_WriteReg(R5, 0x00000000)  returns 0x00 (0000ms, 1118ms total)
T14B0 001:300 JLINK_WriteReg(R6, 0x00000000)  returns 0x00 (0000ms, 1118ms total)
T14B0 001:300 JLINK_WriteReg(R7, 0x00000000)  returns 0x00 (0000ms, 1118ms total)
T14B0 001:300 JLINK_WriteReg(R8, 0x00000000)  returns 0x00 (0000ms, 1118ms total)
T14B0 001:300 JLINK_WriteReg(R9, 0x20000160)  returns 0x00 (0000ms, 1118ms total)
T14B0 001:300 JLINK_WriteReg(R10, 0x00000000)  returns 0x00 (0000ms, 1118ms total)
T14B0 001:300 JLINK_WriteReg(R11, 0x00000000)  returns 0x00 (0000ms, 1118ms total)
T14B0 001:300 JLINK_WriteReg(R12, 0x00000000)  returns 0x00 (0000ms, 1118ms total)
T14B0 001:300 JLINK_WriteReg(R13, 0x20000800)  returns 0x00 (0000ms, 1118ms total)
T14B0 001:300 JLINK_WriteReg(R14, 0x20000001)  returns 0x00 (0000ms, 1118ms total)
T14B0 001:300 JLINK_WriteReg(R15, 0x2000006A)  returns 0x00 (0000ms, 1118ms total)
T14B0 001:300 JLINK_WriteReg(XPSR, 0x01000000)  returns 0x00 (0000ms, 1118ms total)
T14B0 001:300 JLINK_WriteReg(MSP, 0x20000800)  returns 0x00 (0000ms, 1118ms total)
T14B0 001:300 JLINK_WriteReg(PSP, 0x20000800)  returns 0x00 (0000ms, 1118ms total)
T14B0 001:300 JLINK_WriteReg(CFBP, 0x00000000)  returns 0x00 (0000ms, 1118ms total)
T14B0 001:300 JLINK_SetBPEx(Addr = 0x20000000, Type = 0xFFFFFFF2)  returns 0x00000003 (0000ms, 1118ms total)
T14B0 001:300 JLINK_Go() -- CPU_WriteMem(4 bytes @ 0xE0002008) -- CPU_WriteMem(4 bytes @ 0xE000200C) -- CPU_WriteMem(4 bytes @ 0xE0002010) -- CPU_WriteMem(4 bytes @ 0xE0002014) -- CPU_WriteMem(4 bytes @ 0xE0002018) -- CPU_WriteMem(4 bytes @ 0xE000201C) >0x310 JTAG> >0x218 JTAG> >0x218 JTAG> >0x218 JTAG> >0x240 JTAG> >0x240 JTAG> (0022ms, 1118ms total)
T14B0 001:322 JLINK_IsHalted() >0x198 JTAG> >0x17A8 JTAG> -- CPU_ReadMem(2 bytes @ 0x20000000)  returns TRUE (0009ms, 1140ms total)
T14B0 001:331 JLINK_ReadReg(R15)  returns 0x20000000 (0000ms, 1140ms total)
T14B0 001:331 JLINK_ClrBPEx(BPHandle = 0x00000003)  returns 0x00 (0000ms, 1140ms total)
T14B0 001:331 JLINK_ReadReg(R0)  returns 0x00000000 (0000ms, 1140ms total)
T14B0 001:335 JLINK_WriteMem(0x20000000, 0x0164 Bytes, ...) -- Data:  00 BE 0A E0 0D 78 2D 06 68 40 08 24 40 00 00 D3 ... -- CPU_WriteMem(356 bytes @ 0x20000000)  returns 0x164 (0005ms, 1140ms total)
T14B0 001:340 JLINK_WriteReg(R0, 0x08000000)  returns 0x00 (0000ms, 1145ms total)
T14B0 001:340 JLINK_WriteReg(R1, 0x007A1200)  returns 0x00 (0000ms, 1145ms total)
T14B0 001:340 JLINK_WriteReg(R2, 0x00000002)  returns 0x00 (0000ms, 1145ms total)
T14B0 001:340 JLINK_WriteReg(R3, 0x00000000)  returns 0x00 (0000ms, 1145ms total)
T14B0 001:340 JLINK_WriteReg(R4, 0x00000000)  returns 0x00 (0000ms, 1145ms total)
T14B0 001:340 JLINK_WriteReg(R5, 0x00000000)  returns 0x00 (0000ms, 1145ms total)
T14B0 001:340 JLINK_WriteReg(R6, 0x00000000)  returns 0x00 (0000ms, 1145ms total)
T14B0 001:340 JLINK_WriteReg(R7, 0x00000000)  returns 0x00 (0000ms, 1145ms total)
T14B0 001:340 JLINK_WriteReg(R8, 0x00000000)  returns 0x00 (0000ms, 1145ms total)
T14B0 001:340 JLINK_WriteReg(R9, 0x20000160)  returns 0x00 (0000ms, 1145ms total)
T14B0 001:340 JLINK_WriteReg(R10, 0x00000000)  returns 0x00 (0000ms, 1145ms total)
T14B0 001:340 JLINK_WriteReg(R11, 0x00000000)  returns 0x00 (0000ms, 1145ms total)
T14B0 001:340 JLINK_WriteReg(R12, 0x00000000)  returns 0x00 (0000ms, 1145ms total)
T14B0 001:340 JLINK_WriteReg(R13, 0x20000800)  returns 0x00 (0000ms, 1145ms total)
T14B0 001:340 JLINK_WriteReg(R14, 0x20000001)  returns 0x00 (0000ms, 1145ms total)
T14B0 001:340 JLINK_WriteReg(R15, 0x20000038)  returns 0x00 (0000ms, 1145ms total)
T14B0 001:340 JLINK_WriteReg(XPSR, 0x01000000)  returns 0x00 (0000ms, 1145ms total)
T14B0 001:340 JLINK_WriteReg(MSP, 0x20000800)  returns 0x00 (0000ms, 1145ms total)
T14B0 001:340 JLINK_WriteReg(PSP, 0x20000800)  returns 0x00 (0000ms, 1145ms total)
T14B0 001:340 JLINK_WriteReg(CFBP, 0x00000000)  returns 0x00 (0000ms, 1145ms total)
T14B0 001:340 JLINK_SetBPEx(Addr = 0x20000000, Type = 0xFFFFFFF2) -- CPU_ReadMem(2 bytes @ 0x20000000)  returns 0x00000004 (0001ms, 1145ms total)
T14B0 001:341 JLINK_Go() -- CPU_WriteMem(2 bytes @ 0x20000000) -- CPU_WriteMem(4 bytes @ 0xE0002008) -- CPU_WriteMem(4 bytes @ 0xE000200C) -- CPU_WriteMem(4 bytes @ 0xE0002010) -- CPU_WriteMem(4 bytes @ 0xE0002014) -- CPU_WriteMem(4 bytes @ 0xE0002018) -- CPU_WriteMem(4 bytes @ 0xE000201C) >0x310 JTAG> >0x218 JTAG> >0x218 JTAG> >0x218 JTAG> >0x218 JTAG> >0x240 JTAG> >0x240 JTAG> (0024ms, 1146ms total)
T14B0 001:365 JLINK_IsHalted() >0x198 JTAG> >0x17A8 JTAG> -- CPU_ReadMem(2 bytes @ 0x20000000)  returns TRUE (0010ms, 1170ms total)
T14B0 001:375 JLINK_ReadReg(R15)  returns 0x20000000 (0000ms, 1170ms total)
T14B0 001:375 JLINK_ClrBPEx(BPHandle = 0x00000004)  returns 0x00 (0000ms, 1170ms total)
T14B0 001:375 JLINK_ReadReg(R0)  returns 0x00000000 (0000ms, 1170ms total)
T14B0 001:375 JLINK_WriteMem(0x20000164, 0x0400 Bytes, ...) -- Data:  80 B7 00 20 45 01 00 08 E5 19 00 08 3D 0F 00 08 ... -- CPU_WriteMem(1024 bytes @ 0x20000164)  returns 0x400 (0008ms, 1170ms total)
T14B0 001:383 JLINK_WriteReg(R0, 0x08000000)  returns 0x00 (0000ms, 1178ms total)
T14B0 001:383 JLINK_WriteReg(R1, 0x00000400)  returns 0x00 (0000ms, 1178ms total)
T14B0 001:383 JLINK_WriteReg(R2, 0x20000164)  returns 0x00 (0000ms, 1178ms total)
T14B0 001:383 JLINK_WriteReg(R3, 0x00000000)  returns 0x00 (0000ms, 1178ms total)
T14B0 001:383 JLINK_WriteReg(R4, 0x00000000)  returns 0x00 (0000ms, 1178ms total)
T14B0 001:383 JLINK_WriteReg(R5, 0x00000000)  returns 0x00 (0000ms, 1178ms total)
T14B0 001:383 JLINK_WriteReg(R6, 0x00000000)  returns 0x00 (0000ms, 1178ms total)
T14B0 001:383 JLINK_WriteReg(R7, 0x00000000)  returns 0x00 (0000ms, 1178ms total)
T14B0 001:383 JLINK_WriteReg(R8, 0x00000000)  returns 0x00 (0000ms, 1178ms total)
T14B0 001:383 JLINK_WriteReg(R9, 0x20000160)  returns 0x00 (0000ms, 1178ms total)
T14B0 001:383 JLINK_WriteReg(R10, 0x00000000)  returns 0x00 (0000ms, 1178ms total)
T14B0 001:383 JLINK_WriteReg(R11, 0x00000000)  returns 0x00 (0000ms, 1178ms total)
T14B0 001:383 JLINK_WriteReg(R12, 0x00000000)  returns 0x00 (0000ms, 1178ms total)
T14B0 001:383 JLINK_WriteReg(R13, 0x20000800)  returns 0x00 (0000ms, 1178ms total)
T14B0 001:383 JLINK_WriteReg(R14, 0x20000001)  returns 0x00 (0000ms, 1178ms total)
T14B0 001:383 JLINK_WriteReg(R15, 0x200000F4)  returns 0x00 (0000ms, 1178ms total)
T14B0 001:383 JLINK_WriteReg(XPSR, 0x01000000)  returns 0x00 (0000ms, 1178ms total)
T14B0 001:383 JLINK_WriteReg(MSP, 0x20000800)  returns 0x00 (0000ms, 1178ms total)
T14B0 001:383 JLINK_WriteReg(PSP, 0x20000800)  returns 0x00 (0000ms, 1178ms total)
T14B0 001:383 JLINK_WriteReg(CFBP, 0x00000000)  returns 0x00 (0000ms, 1178ms total)
T14B0 001:383 JLINK_SetBPEx(Addr = 0x20000000, Type = 0xFFFFFFF2)  returns 0x00000005 (0000ms, 1178ms total)
T14B0 001:383 JLINK_Go() -- CPU_WriteMem(4 bytes @ 0xE0002008) -- CPU_WriteMem(4 bytes @ 0xE000200C) -- CPU_WriteMem(4 bytes @ 0xE0002010) -- CPU_WriteMem(4 bytes @ 0xE0002014) -- CPU_WriteMem(4 bytes @ 0xE0002018) -- CPU_WriteMem(4 bytes @ 0xE000201C) >0x310 JTAG> >0x218 JTAG> >0x218 JTAG> >0x218 JTAG> >0x218 JTAG> >0x218 JTAG> >0x240 JTAG> >0x240 JTAG> (0025ms, 1178ms total)
T14B0 001:408 JLINK_IsHalted() >0x198 JTAG>  returns FALSE (0002ms, 1203ms total)
T14B0 001:461 JLINK_IsHalted() >0x198 JTAG> >0x17A8 JTAG> -- CPU_ReadMem(2 bytes @ 0x20000000)  returns TRUE (0010ms, 1203ms total)
T14B0 001:471 JLINK_ReadReg(R15)  returns 0x20000000 (0000ms, 1203ms total)
T14B0 001:471 JLINK_ClrBPEx(BPHandle = 0x00000005)  returns 0x00 (0000ms, 1203ms total)
T14B0 001:471 JLINK_ReadReg(R0)  returns 0x00000000 (0000ms, 1203ms total)
T14B0 001:472 JLINK_WriteMem(0x20000164, 0x0400 Bytes, ...) -- Data:  00 02 44 EA C0 74 4F EA 05 53 80 1A 61 EB 03 01 ... -- CPU_WriteMem(1024 bytes @ 0x20000164)  returns 0x400 (0007ms, 1203ms total)
T14B0 001:479 JLINK_WriteReg(R0, 0x08000400)  returns 0x00 (0000ms, 1210ms total)
T14B0 001:479 JLINK_WriteReg(R1, 0x00000400)  returns 0x00 (0000ms, 1210ms total)
T14B0 001:479 JLINK_WriteReg(R2, 0x20000164)  returns 0x00 (0000ms, 1210ms total)
T14B0 001:479 JLINK_WriteReg(R3, 0x00000000)  returns 0x00 (0000ms, 1210ms total)
T14B0 001:479 JLINK_WriteReg(R4, 0x00000000)  returns 0x00 (0000ms, 1210ms total)
T14B0 001:479 JLINK_WriteReg(R5, 0x00000000)  returns 0x00 (0000ms, 1210ms total)
T14B0 001:479 JLINK_WriteReg(R6, 0x00000000)  returns 0x00 (0000ms, 1210ms total)
T14B0 001:479 JLINK_WriteReg(R7, 0x00000000)  returns 0x00 (0000ms, 1210ms total)
T14B0 001:479 JLINK_WriteReg(R8, 0x00000000)  returns 0x00 (0000ms, 1210ms total)
T14B0 001:479 JLINK_WriteReg(R9, 0x20000160)  returns 0x00 (0000ms, 1210ms total)
T14B0 001:479 JLINK_WriteReg(R10, 0x00000000)  returns 0x00 (0000ms, 1210ms total)
T14B0 001:479 JLINK_WriteReg(R11, 0x00000000)  returns 0x00 (0000ms, 1210ms total)
T14B0 001:479 JLINK_WriteReg(R12, 0x00000000)  returns 0x00 (0001ms, 1210ms total)
T14B0 001:480 JLINK_WriteReg(R13, 0x20000800)  returns 0x00 (0000ms, 1211ms total)
T14B0 001:480 JLINK_WriteReg(R14, 0x20000001)  returns 0x00 (0000ms, 1211ms total)
T14B0 001:480 JLINK_WriteReg(R15, 0x200000F4)  returns 0x00 (0000ms, 1211ms total)
T14B0 001:480 JLINK_WriteReg(XPSR, 0x01000000)  returns 0x00 (0000ms, 1211ms total)
T14B0 001:480 JLINK_WriteReg(MSP, 0x20000800)  returns 0x00 (0000ms, 1211ms total)
T14B0 001:480 JLINK_WriteReg(PSP, 0x20000800)  returns 0x00 (0000ms, 1211ms total)
T14B0 001:480 JLINK_WriteReg(CFBP, 0x00000000)  returns 0x00 (0000ms, 1211ms total)
T14B0 001:480 JLINK_SetBPEx(Addr = 0x20000000, Type = 0xFFFFFFF2)  returns 0x00000006 (0000ms, 1211ms total)
T14B0 001:480 JLINK_Go() -- CPU_WriteMem(4 bytes @ 0xE0002008) -- CPU_WriteMem(4 bytes @ 0xE000200C) -- CPU_WriteMem(4 bytes @ 0xE0002010) -- CPU_WriteMem(4 bytes @ 0xE0002014) -- CPU_WriteMem(4 bytes @ 0xE0002018) -- CPU_WriteMem(4 bytes @ 0xE000201C) >0x310 JTAG> >0x218 JTAG> >0x218 JTAG> >0x218 JTAG> >0x218 JTAG> >0x218 JTAG> >0x240 JTAG> >0x240 JTAG> (0025ms, 1211ms total)
T14B0 001:505 JLINK_IsHalted() >0x198 JTAG>  returns FALSE (0002ms, 1236ms total)
T14B0 001:558 JLINK_IsHalted() >0x198 JTAG> >0x17A8 JTAG> -- CPU_ReadMem(2 bytes @ 0x20000000)  returns TRUE (0010ms, 1236ms total)
T14B0 001:568 JLINK_ReadReg(R15)  returns 0x20000000 (0000ms, 1236ms total)
T14B0 001:568 JLINK_ClrBPEx(BPHandle = 0x00000006)  returns 0x00 (0000ms, 1236ms total)
T14B0 001:568 JLINK_ReadReg(R0)  returns 0x00000000 (0000ms, 1236ms total)
T14B0 001:568 JLINK_WriteMem(0x20000164, 0x0400 Bytes, ...) -- Data:  13 F8 01 5B 01 F8 01 5B 52 1E F9 D5 A1 42 D6 D3 ... -- CPU_WriteMem(1024 bytes @ 0x20000164)  returns 0x400 (0007ms, 1236ms total)
T14B0 001:575 JLINK_WriteReg(R0, 0x08000800)  returns 0x00 (0000ms, 1243ms total)
T14B0 001:575 JLINK_WriteReg(R1, 0x00000400)  returns 0x00 (0000ms, 1243ms total)
T14B0 001:575 JLINK_WriteReg(R2, 0x20000164)  returns 0x00 (0000ms, 1243ms total)
T14B0 001:575 JLINK_WriteReg(R3, 0x00000000)  returns 0x00 (0000ms, 1243ms total)
T14B0 001:575 JLINK_WriteReg(R4, 0x00000000)  returns 0x00 (0000ms, 1243ms total)
T14B0 001:575 JLINK_WriteReg(R5, 0x00000000)  returns 0x00 (0000ms, 1243ms total)
T14B0 001:575 JLINK_WriteReg(R6, 0x00000000)  returns 0x00 (0000ms, 1243ms total)
T14B0 001:575 JLINK_WriteReg(R7, 0x00000000)  returns 0x00 (0000ms, 1243ms total)
T14B0 001:575 JLINK_WriteReg(R8, 0x00000000)  returns 0x00 (0000ms, 1243ms total)
T14B0 001:575 JLINK_WriteReg(R9, 0x20000160)  returns 0x00 (0000ms, 1243ms total)
T14B0 001:575 JLINK_WriteReg(R10, 0x00000000)  returns 0x00 (0000ms, 1243ms total)
T14B0 001:575 JLINK_WriteReg(R11, 0x00000000)  returns 0x00 (0000ms, 1243ms total)
T14B0 001:575 JLINK_WriteReg(R12, 0x00000000)  returns 0x00 (0000ms, 1243ms total)
T14B0 001:575 JLINK_WriteReg(R13, 0x20000800)  returns 0x00 (0000ms, 1243ms total)
T14B0 001:575 JLINK_WriteReg(R14, 0x20000001)  returns 0x00 (0000ms, 1243ms total)
T14B0 001:575 JLINK_WriteReg(R15, 0x200000F4)  returns 0x00 (0000ms, 1243ms total)
T14B0 001:575 JLINK_WriteReg(XPSR, 0x01000000)  returns 0x00 (0000ms, 1243ms total)
T14B0 001:575 JLINK_WriteReg(MSP, 0x20000800)  returns 0x00 (0000ms, 1243ms total)
T14B0 001:575 JLINK_WriteReg(PSP, 0x20000800)  returns 0x00 (0000ms, 1243ms total)
T14B0 001:575 JLINK_WriteReg(CFBP, 0x00000000)  returns 0x00 (0000ms, 1243ms total)
T14B0 001:575 JLINK_SetBPEx(Addr = 0x20000000, Type = 0xFFFFFFF2)  returns 0x00000007 (0000ms, 1243ms total)
T14B0 001:575 JLINK_Go() -- CPU_WriteMem(4 bytes @ 0xE0002008) -- CPU_WriteMem(4 bytes @ 0xE000200C) -- CPU_WriteMem(4 bytes @ 0xE0002010) -- CPU_WriteMem(4 bytes @ 0xE0002014) -- CPU_WriteMem(4 bytes @ 0xE0002018) -- CPU_WriteMem(4 bytes @ 0xE000201C) >0x310 JTAG> >0x218 JTAG> >0x218 JTAG> >0x218 JTAG> >0x218 JTAG> >0x218 JTAG> >0x240 JTAG> >0x240 JTAG> (0026ms, 1243ms total)
T14B0 001:601 JLINK_IsHalted() >0x198 JTAG>  returns FALSE (0002ms, 1269ms total)
T14B0 001:654 JLINK_IsHalted() >0x198 JTAG> >0x17A8 JTAG> -- CPU_ReadMem(2 bytes @ 0x20000000)  returns TRUE (0009ms, 1269ms total)
T14B0 001:663 JLINK_ReadReg(R15)  returns 0x20000000 (0000ms, 1269ms total)
T14B0 001:663 JLINK_ClrBPEx(BPHandle = 0x00000007)  returns 0x00 (0000ms, 1269ms total)
T14B0 001:663 JLINK_ReadReg(R0)  returns 0x00000000 (0000ms, 1269ms total)
T14B0 001:664 JLINK_WriteMem(0x20000164, 0x0400 Bytes, ...) -- Data:  70 B5 05 46 40 F6 FF 76 30 46 00 F0 77 F8 04 28 ... -- CPU_WriteMem(1024 bytes @ 0x20000164)  returns 0x400 (0007ms, 1269ms total)
T14B0 001:671 JLINK_WriteReg(R0, 0x08000C00)  returns 0x00 (0000ms, 1276ms total)
T14B0 001:671 JLINK_WriteReg(R1, 0x00000400)  returns 0x00 (0000ms, 1276ms total)
T14B0 001:671 JLINK_WriteReg(R2, 0x20000164)  returns 0x00 (0000ms, 1276ms total)
T14B0 001:671 JLINK_WriteReg(R3, 0x00000000)  returns 0x00 (0000ms, 1276ms total)
T14B0 001:671 JLINK_WriteReg(R4, 0x00000000)  returns 0x00 (0000ms, 1276ms total)
T14B0 001:671 JLINK_WriteReg(R5, 0x00000000)  returns 0x00 (0000ms, 1276ms total)
T14B0 001:671 JLINK_WriteReg(R6, 0x00000000)  returns 0x00 (0000ms, 1276ms total)
T14B0 001:671 JLINK_WriteReg(R7, 0x00000000)  returns 0x00 (0000ms, 1276ms total)
T14B0 001:671 JLINK_WriteReg(R8, 0x00000000)  returns 0x00 (0001ms, 1276ms total)
T14B0 001:672 JLINK_WriteReg(R9, 0x20000160)  returns 0x00 (0000ms, 1277ms total)
T14B0 001:672 JLINK_WriteReg(R10, 0x00000000)  returns 0x00 (0000ms, 1277ms total)
T14B0 001:672 JLINK_WriteReg(R11, 0x00000000)  returns 0x00 (0000ms, 1277ms total)
T14B0 001:672 JLINK_WriteReg(R12, 0x00000000)  returns 0x00 (0000ms, 1277ms total)
T14B0 001:672 JLINK_WriteReg(R13, 0x20000800)  returns 0x00 (0000ms, 1277ms total)
T14B0 001:672 JLINK_WriteReg(R14, 0x20000001)  returns 0x00 (0000ms, 1277ms total)
T14B0 001:672 JLINK_WriteReg(R15, 0x200000F4)  returns 0x00 (0000ms, 1277ms total)
T14B0 001:672 JLINK_WriteReg(XPSR, 0x01000000)  returns 0x00 (0000ms, 1277ms total)
T14B0 001:672 JLINK_WriteReg(MSP, 0x20000800)  returns 0x00 (0000ms, 1277ms total)
T14B0 001:672 JLINK_WriteReg(PSP, 0x20000800)  returns 0x00 (0000ms, 1277ms total)
T14B0 001:672 JLINK_WriteReg(CFBP, 0x00000000)  returns 0x00 (0000ms, 1277ms total)
T14B0 001:672 JLINK_SetBPEx(Addr = 0x20000000, Type = 0xFFFFFFF2)  returns 0x00000008 (0000ms, 1277ms total)
T14B0 001:672 JLINK_Go() -- CPU_WriteMem(4 bytes @ 0xE0002008) -- CPU_WriteMem(4 bytes @ 0xE000200C) -- CPU_WriteMem(4 bytes @ 0xE0002010) -- CPU_WriteMem(4 bytes @ 0xE0002014) -- CPU_WriteMem(4 bytes @ 0xE0002018) -- CPU_WriteMem(4 bytes @ 0xE000201C) >0x310 JTAG> >0x218 JTAG> >0x218 JTAG> >0x218 JTAG> >0x218 JTAG> >0x218 JTAG> >0x240 JTAG> >0x240 JTAG> (0025ms, 1277ms total)
T14B0 001:697 JLINK_IsHalted() >0x198 JTAG>  returns FALSE (0002ms, 1302ms total)
T14B0 001:749 JLINK_IsHalted() >0x198 JTAG> >0x17A8 JTAG> -- CPU_ReadMem(2 bytes @ 0x20000000)  returns TRUE (0010ms, 1302ms total)
T14B0 001:759 JLINK_ReadReg(R15)  returns 0x20000000 (0000ms, 1302ms total)
T14B0 001:759 JLINK_ClrBPEx(BPHandle = 0x00000008)  returns 0x00 (0000ms, 1302ms total)
T14B0 001:759 JLINK_ReadReg(R0)  returns 0x00000000 (0000ms, 1302ms total)
T14B0 001:759 JLINK_WriteMem(0x20000164, 0x0400 Bytes, ...) -- Data:  42 A0 02 F0 ED FC 33 49 09 78 0A 06 31 49 49 78 ... -- CPU_WriteMem(1024 bytes @ 0x20000164)  returns 0x400 (0008ms, 1302ms total)
T14B0 001:767 JLINK_WriteReg(R0, 0x08001000)  returns 0x00 (0000ms, 1310ms total)
T14B0 001:767 JLINK_WriteReg(R1, 0x00000400)  returns 0x00 (0000ms, 1310ms total)
T14B0 001:767 JLINK_WriteReg(R2, 0x20000164)  returns 0x00 (0000ms, 1310ms total)
T14B0 001:767 JLINK_WriteReg(R3, 0x00000000)  returns 0x00 (0000ms, 1310ms total)
T14B0 001:767 JLINK_WriteReg(R4, 0x00000000)  returns 0x00 (0000ms, 1310ms total)
T14B0 001:767 JLINK_WriteReg(R5, 0x00000000)  returns 0x00 (0000ms, 1310ms total)
T14B0 001:767 JLINK_WriteReg(R6, 0x00000000)  returns 0x00 (0000ms, 1310ms total)
T14B0 001:767 JLINK_WriteReg(R7, 0x00000000)  returns 0x00 (0000ms, 1310ms total)
T14B0 001:767 JLINK_WriteReg(R8, 0x00000000)  returns 0x00 (0000ms, 1310ms total)
T14B0 001:767 JLINK_WriteReg(R9, 0x20000160)  returns 0x00 (0000ms, 1310ms total)
T14B0 001:767 JLINK_WriteReg(R10, 0x00000000)  returns 0x00 (0000ms, 1310ms total)
T14B0 001:767 JLINK_WriteReg(R11, 0x00000000)  returns 0x00 (0000ms, 1310ms total)
T14B0 001:767 JLINK_WriteReg(R12, 0x00000000)  returns 0x00 (0000ms, 1310ms total)
T14B0 001:767 JLINK_WriteReg(R13, 0x20000800)  returns 0x00 (0000ms, 1310ms total)
T14B0 001:767 JLINK_WriteReg(R14, 0x20000001)  returns 0x00 (0000ms, 1310ms total)
T14B0 001:767 JLINK_WriteReg(R15, 0x200000F4)  returns 0x00 (0000ms, 1310ms total)
T14B0 001:767 JLINK_WriteReg(XPSR, 0x01000000)  returns 0x00 (0000ms, 1310ms total)
T14B0 001:767 JLINK_WriteReg(MSP, 0x20000800)  returns 0x00 (0000ms, 1310ms total)
T14B0 001:767 JLINK_WriteReg(PSP, 0x20000800)  returns 0x00 (0000ms, 1310ms total)
T14B0 001:767 JLINK_WriteReg(CFBP, 0x00000000)  returns 0x00 (0000ms, 1310ms total)
T14B0 001:767 JLINK_SetBPEx(Addr = 0x20000000, Type = 0xFFFFFFF2)  returns 0x00000009 (0000ms, 1310ms total)
T14B0 001:767 JLINK_Go() -- CPU_WriteMem(4 bytes @ 0xE0002008) -- CPU_WriteMem(4 bytes @ 0xE000200C) -- CPU_WriteMem(4 bytes @ 0xE0002010) -- CPU_WriteMem(4 bytes @ 0xE0002014) -- CPU_WriteMem(4 bytes @ 0xE0002018) -- CPU_WriteMem(4 bytes @ 0xE000201C) >0x310 JTAG> >0x218 JTAG> >0x218 JTAG> >0x218 JTAG> >0x218 JTAG> >0x218 JTAG> >0x240 JTAG> >0x240 JTAG> (0025ms, 1310ms total)
T14B0 001:792 JLINK_IsHalted() >0x198 JTAG>  returns FALSE (0002ms, 1335ms total)
T14B0 001:845 JLINK_IsHalted() >0x198 JTAG> >0x17A8 JTAG> -- CPU_ReadMem(2 bytes @ 0x20000000)  returns TRUE (0010ms, 1335ms total)
T14B0 001:855 JLINK_ReadReg(R15)  returns 0x20000000 (0000ms, 1335ms total)
T14B0 001:855 JLINK_ClrBPEx(BPHandle = 0x00000009)  returns 0x00 (0000ms, 1335ms total)
T14B0 001:855 JLINK_ReadReg(R0)  returns 0x00000000 (0000ms, 1335ms total)
T14B0 001:856 JLINK_WriteMem(0x20000164, 0x0400 Bytes, ...) -- Data:  81 EA 02 06 1E 40 56 40 67 69 3E 44 8F 4F 3E 44 ... -- CPU_WriteMem(1024 bytes @ 0x20000164)  returns 0x400 (0008ms, 1335ms total)
T14B0 001:864 JLINK_WriteReg(R0, 0x08001400)  returns 0x00 (0000ms, 1343ms total)
T14B0 001:864 JLINK_WriteReg(R1, 0x00000400)  returns 0x00 (0000ms, 1343ms total)
T14B0 001:864 JLINK_WriteReg(R2, 0x20000164)  returns 0x00 (0000ms, 1343ms total)
T14B0 001:864 JLINK_WriteReg(R3, 0x00000000)  returns 0x00 (0000ms, 1343ms total)
T14B0 001:864 JLINK_WriteReg(R4, 0x00000000)  returns 0x00 (0000ms, 1343ms total)
T14B0 001:864 JLINK_WriteReg(R5, 0x00000000)  returns 0x00 (0000ms, 1343ms total)
T14B0 001:864 JLINK_WriteReg(R6, 0x00000000)  returns 0x00 (0000ms, 1343ms total)
T14B0 001:864 JLINK_WriteReg(R7, 0x00000000)  returns 0x00 (0000ms, 1343ms total)
T14B0 001:864 JLINK_WriteReg(R8, 0x00000000)  returns 0x00 (0000ms, 1343ms total)
T14B0 001:864 JLINK_WriteReg(R9, 0x20000160)  returns 0x00 (0000ms, 1343ms total)
T14B0 001:864 JLINK_WriteReg(R10, 0x00000000)  returns 0x00 (0000ms, 1343ms total)
T14B0 001:864 JLINK_WriteReg(R11, 0x00000000)  returns 0x00 (0000ms, 1343ms total)
T14B0 001:864 JLINK_WriteReg(R12, 0x00000000)  returns 0x00 (0000ms, 1343ms total)
T14B0 001:864 JLINK_WriteReg(R13, 0x20000800)  returns 0x00 (0000ms, 1343ms total)
T14B0 001:864 JLINK_WriteReg(R14, 0x20000001)  returns 0x00 (0000ms, 1343ms total)
T14B0 001:864 JLINK_WriteReg(R15, 0x200000F4)  returns 0x00 (0000ms, 1343ms total)
T14B0 001:864 JLINK_WriteReg(XPSR, 0x01000000)  returns 0x00 (0000ms, 1343ms total)
T14B0 001:864 JLINK_WriteReg(MSP, 0x20000800)  returns 0x00 (0000ms, 1343ms total)
T14B0 001:864 JLINK_WriteReg(PSP, 0x20000800)  returns 0x00 (0000ms, 1343ms total)
T14B0 001:864 JLINK_WriteReg(CFBP, 0x00000000)  returns 0x00 (0000ms, 1343ms total)
T14B0 001:864 JLINK_SetBPEx(Addr = 0x20000000, Type = 0xFFFFFFF2)  returns 0x0000000A (0000ms, 1343ms total)
T14B0 001:864 JLINK_Go() -- CPU_WriteMem(4 bytes @ 0xE0002008) -- CPU_WriteMem(4 bytes @ 0xE000200C) -- CPU_WriteMem(4 bytes @ 0xE0002010) -- CPU_WriteMem(4 bytes @ 0xE0002014) -- CPU_WriteMem(4 bytes @ 0xE0002018) -- CPU_WriteMem(4 bytes @ 0xE000201C) >0x310 JTAG> >0x218 JTAG> >0x218 JTAG> >0x218 JTAG> >0x218 JTAG> >0x218 JTAG> >0x240 JTAG> >0x240 JTAG> (0024ms, 1343ms total)
T14B0 001:888 JLINK_IsHalted() >0x198 JTAG>  returns FALSE (0002ms, 1367ms total)
T14B0 001:941 JLINK_IsHalted() >0x198 JTAG> >0x17A8 JTAG> -- CPU_ReadMem(2 bytes @ 0x20000000)  returns TRUE (0009ms, 1367ms total)
T14B0 001:950 JLINK_ReadReg(R15)  returns 0x20000000 (0000ms, 1367ms total)
T14B0 001:950 JLINK_ClrBPEx(BPHandle = 0x0000000A)  returns 0x00 (0000ms, 1367ms total)
T14B0 001:950 JLINK_ReadReg(R0)  returns 0x00000000 (0000ms, 1367ms total)
T14B0 001:951 JLINK_WriteMem(0x20000164, 0x0400 Bytes, ...) -- Data:  00 06 5E 40 67 68 3E 44 48 4F 3E 44 31 44 4E 05 ... -- CPU_WriteMem(1024 bytes @ 0x20000164)  returns 0x400 (0007ms, 1367ms total)
T14B0 001:958 JLINK_WriteReg(R0, 0x08001800)  returns 0x00 (0000ms, 1374ms total)
T14B0 001:958 JLINK_WriteReg(R1, 0x00000400)  returns 0x00 (0000ms, 1374ms total)
T14B0 001:959 JLINK_WriteReg(R2, 0x20000164)  returns 0x00 (0000ms, 1374ms total)
T14B0 001:959 JLINK_WriteReg(R3, 0x00000000)  returns 0x00 (0000ms, 1374ms total)
T14B0 001:959 JLINK_WriteReg(R4, 0x00000000)  returns 0x00 (0000ms, 1374ms total)
T14B0 001:959 JLINK_WriteReg(R5, 0x00000000)  returns 0x00 (0000ms, 1374ms total)
T14B0 001:959 JLINK_WriteReg(R6, 0x00000000)  returns 0x00 (0000ms, 1374ms total)
T14B0 001:959 JLINK_WriteReg(R7, 0x00000000)  returns 0x00 (0000ms, 1374ms total)
T14B0 001:959 JLINK_WriteReg(R8, 0x00000000)  returns 0x00 (0000ms, 1374ms total)
T14B0 001:959 JLINK_WriteReg(R9, 0x20000160)  returns 0x00 (0000ms, 1374ms total)
T14B0 001:959 JLINK_WriteReg(R10, 0x00000000)  returns 0x00 (0000ms, 1374ms total)
T14B0 001:959 JLINK_WriteReg(R11, 0x00000000)  returns 0x00 (0000ms, 1374ms total)
T14B0 001:959 JLINK_WriteReg(R12, 0x00000000)  returns 0x00 (0000ms, 1374ms total)
T14B0 001:959 JLINK_WriteReg(R13, 0x20000800)  returns 0x00 (0000ms, 1374ms total)
T14B0 001:959 JLINK_WriteReg(R14, 0x20000001)  returns 0x00 (0000ms, 1374ms total)
T14B0 001:959 JLINK_WriteReg(R15, 0x200000F4)  returns 0x00 (0000ms, 1374ms total)
T14B0 001:959 JLINK_WriteReg(XPSR, 0x01000000)  returns 0x00 (0000ms, 1374ms total)
T14B0 001:959 JLINK_WriteReg(MSP, 0x20000800)  returns 0x00 (0000ms, 1374ms total)
T14B0 001:959 JLINK_WriteReg(PSP, 0x20000800)  returns 0x00 (0000ms, 1374ms total)
T14B0 001:959 JLINK_WriteReg(CFBP, 0x00000000)  returns 0x00 (0000ms, 1374ms total)
T14B0 001:959 JLINK_SetBPEx(Addr = 0x20000000, Type = 0xFFFFFFF2)  returns 0x0000000B (0000ms, 1374ms total)
T14B0 001:959 JLINK_Go() -- CPU_WriteMem(4 bytes @ 0xE0002008) -- CPU_WriteMem(4 bytes @ 0xE000200C) -- CPU_WriteMem(4 bytes @ 0xE0002010) -- CPU_WriteMem(4 bytes @ 0xE0002014) -- CPU_WriteMem(4 bytes @ 0xE0002018) -- CPU_WriteMem(4 bytes @ 0xE000201C) >0x310 JTAG> >0x218 JTAG> >0x218 JTAG> >0x218 JTAG> >0x218 JTAG> >0x218 JTAG> >0x240 JTAG> >0x240 JTAG> (0025ms, 1374ms total)
T14B0 001:984 JLINK_IsHalted() >0x198 JTAG>  returns FALSE (0003ms, 1399ms total)
T14B0 002:037 JLINK_IsHalted() >0x198 JTAG> >0x17A8 JTAG> -- CPU_ReadMem(2 bytes @ 0x20000000)  returns TRUE (0010ms, 1399ms total)
T14B0 002:047 JLINK_ReadReg(R15)  returns 0x20000000 (0000ms, 1399ms total)
T14B0 002:047 JLINK_ClrBPEx(BPHandle = 0x0000000B)  returns 0x00 (0001ms, 1399ms total)
T14B0 002:048 JLINK_ReadReg(R0)  returns 0x00000000 (0000ms, 1400ms total)
T14B0 002:048 JLINK_WriteMem(0x20000164, 0x0400 Bytes, ...) -- Data:  01 60 41 68 21 F4 FE 01 41 60 00 21 81 60 70 47 ... -- CPU_WriteMem(1024 bytes @ 0x20000164)  returns 0x400 (0008ms, 1400ms total)
T14B0 002:056 JLINK_WriteReg(R0, 0x08001C00)  returns 0x00 (0000ms, 1408ms total)
T14B0 002:056 JLINK_WriteReg(R1, 0x00000400)  returns 0x00 (0000ms, 1408ms total)
T14B0 002:056 JLINK_WriteReg(R2, 0x20000164)  returns 0x00 (0000ms, 1408ms total)
T14B0 002:056 JLINK_WriteReg(R3, 0x00000000)  returns 0x00 (0000ms, 1408ms total)
T14B0 002:056 JLINK_WriteReg(R4, 0x00000000)  returns 0x00 (0000ms, 1408ms total)
T14B0 002:056 JLINK_WriteReg(R5, 0x00000000)  returns 0x00 (0000ms, 1408ms total)
T14B0 002:056 JLINK_WriteReg(R6, 0x00000000)  returns 0x00 (0000ms, 1408ms total)
T14B0 002:056 JLINK_WriteReg(R7, 0x00000000)  returns 0x00 (0000ms, 1408ms total)
T14B0 002:056 JLINK_WriteReg(R8, 0x00000000)  returns 0x00 (0000ms, 1408ms total)
T14B0 002:056 JLINK_WriteReg(R9, 0x20000160)  returns 0x00 (0000ms, 1408ms total)
T14B0 002:056 JLINK_WriteReg(R10, 0x00000000)  returns 0x00 (0000ms, 1408ms total)
T14B0 002:056 JLINK_WriteReg(R11, 0x00000000)  returns 0x00 (0000ms, 1408ms total)
T14B0 002:056 JLINK_WriteReg(R12, 0x00000000)  returns 0x00 (0000ms, 1408ms total)
T14B0 002:056 JLINK_WriteReg(R13, 0x20000800)  returns 0x00 (0000ms, 1408ms total)
T14B0 002:056 JLINK_WriteReg(R14, 0x20000001)  returns 0x00 (0000ms, 1408ms total)
T14B0 002:056 JLINK_WriteReg(R15, 0x200000F4)  returns 0x00 (0000ms, 1408ms total)
T14B0 002:056 JLINK_WriteReg(XPSR, 0x01000000)  returns 0x00 (0000ms, 1408ms total)
T14B0 002:056 JLINK_WriteReg(MSP, 0x20000800)  returns 0x00 (0000ms, 1408ms total)
T14B0 002:056 JLINK_WriteReg(PSP, 0x20000800)  returns 0x00 (0000ms, 1408ms total)
T14B0 002:056 JLINK_WriteReg(CFBP, 0x00000000)  returns 0x00 (0000ms, 1408ms total)
T14B0 002:056 JLINK_SetBPEx(Addr = 0x20000000, Type = 0xFFFFFFF2)  returns 0x0000000C (0000ms, 1408ms total)
T14B0 002:056 JLINK_Go() -- CPU_WriteMem(4 bytes @ 0xE0002008) -- CPU_WriteMem(4 bytes @ 0xE000200C) -- CPU_WriteMem(4 bytes @ 0xE0002010) -- CPU_WriteMem(4 bytes @ 0xE0002014) -- CPU_WriteMem(4 bytes @ 0xE0002018) -- CPU_WriteMem(4 bytes @ 0xE000201C) >0x310 JTAG> >0x218 JTAG> >0x218 JTAG> >0x218 JTAG> >0x218 JTAG> >0x218 JTAG> >0x240 JTAG> >0x240 JTAG> (0024ms, 1408ms total)
T14B0 002:080 JLINK_IsHalted() >0x198 JTAG>  returns FALSE (0002ms, 1432ms total)
T14B0 002:133 JLINK_IsHalted() >0x198 JTAG> >0x17A8 JTAG> -- CPU_ReadMem(2 bytes @ 0x20000000)  returns TRUE (0010ms, 1432ms total)
T14B0 002:143 JLINK_ReadReg(R15)  returns 0x20000000 (0000ms, 1432ms total)
T14B0 002:143 JLINK_ClrBPEx(BPHandle = 0x0000000C)  returns 0x00 (0000ms, 1432ms total)
T14B0 002:143 JLINK_ReadReg(R0)  returns 0x00000000 (0000ms, 1432ms total)
T14B0 002:143 JLINK_WriteMem(0x20000164, 0x0400 Bytes, ...) -- Data:  40 EA 11 20 00 F0 FF 21 60 68 00 02 62 68 40 EA ... -- CPU_WriteMem(1024 bytes @ 0x20000164)  returns 0x400 (0008ms, 1432ms total)
T14B0 002:151 JLINK_WriteReg(R0, 0x08002000)  returns 0x00 (0000ms, 1440ms total)
T14B0 002:151 JLINK_WriteReg(R1, 0x00000400)  returns 0x00 (0000ms, 1440ms total)
T14B0 002:151 JLINK_WriteReg(R2, 0x20000164)  returns 0x00 (0000ms, 1440ms total)
T14B0 002:151 JLINK_WriteReg(R3, 0x00000000)  returns 0x00 (0000ms, 1440ms total)
T14B0 002:151 JLINK_WriteReg(R4, 0x00000000)  returns 0x00 (0000ms, 1440ms total)
T14B0 002:151 JLINK_WriteReg(R5, 0x00000000)  returns 0x00 (0000ms, 1440ms total)
T14B0 002:151 JLINK_WriteReg(R6, 0x00000000)  returns 0x00 (0000ms, 1440ms total)
T14B0 002:151 JLINK_WriteReg(R7, 0x00000000)  returns 0x00 (0000ms, 1440ms total)
T14B0 002:151 JLINK_WriteReg(R8, 0x00000000)  returns 0x00 (0000ms, 1440ms total)
T14B0 002:151 JLINK_WriteReg(R9, 0x20000160)  returns 0x00 (0000ms, 1440ms total)
T14B0 002:152 JLINK_WriteReg(R10, 0x00000000)  returns 0x00 (0000ms, 1440ms total)
T14B0 002:152 JLINK_WriteReg(R11, 0x00000000)  returns 0x00 (0000ms, 1440ms total)
T14B0 002:152 JLINK_WriteReg(R12, 0x00000000)  returns 0x00 (0000ms, 1440ms total)
T14B0 002:152 JLINK_WriteReg(R13, 0x20000800)  returns 0x00 (0000ms, 1440ms total)
T14B0 002:152 JLINK_WriteReg(R14, 0x20000001)  returns 0x00 (0000ms, 1440ms total)
T14B0 002:152 JLINK_WriteReg(R15, 0x200000F4)  returns 0x00 (0000ms, 1440ms total)
T14B0 002:152 JLINK_WriteReg(XPSR, 0x01000000)  returns 0x00 (0000ms, 1440ms total)
T14B0 002:152 JLINK_WriteReg(MSP, 0x20000800)  returns 0x00 (0000ms, 1440ms total)
T14B0 002:152 JLINK_WriteReg(PSP, 0x20000800)  returns 0x00 (0000ms, 1440ms total)
T14B0 002:152 JLINK_WriteReg(CFBP, 0x00000000)  returns 0x00 (0000ms, 1440ms total)
T14B0 002:152 JLINK_SetBPEx(Addr = 0x20000000, Type = 0xFFFFFFF2)  returns 0x0000000D (0000ms, 1440ms total)
T14B0 002:152 JLINK_Go() -- CPU_WriteMem(4 bytes @ 0xE0002008) -- CPU_WriteMem(4 bytes @ 0xE000200C) -- CPU_WriteMem(4 bytes @ 0xE0002010) -- CPU_WriteMem(4 bytes @ 0xE0002014) -- CPU_WriteMem(4 bytes @ 0xE0002018) -- CPU_WriteMem(4 bytes @ 0xE000201C) >0x310 JTAG> >0x218 JTAG> >0x218 JTAG> >0x218 JTAG> >0x218 JTAG> >0x218 JTAG> >0x240 JTAG> >0x240 JTAG> (0024ms, 1440ms total)
T14B0 002:176 JLINK_IsHalted() >0x198 JTAG>  returns FALSE (0002ms, 1464ms total)
T14B0 002:229 JLINK_IsHalted() >0x198 JTAG> >0x17A8 JTAG> -- CPU_ReadMem(2 bytes @ 0x20000000)  returns TRUE (0010ms, 1464ms total)
T14B0 002:239 JLINK_ReadReg(R15)  returns 0x20000000 (0000ms, 1464ms total)
T14B0 002:239 JLINK_ClrBPEx(BPHandle = 0x0000000D)  returns 0x00 (0000ms, 1464ms total)
T14B0 002:239 JLINK_ReadReg(R0)  returns 0x00000000 (0000ms, 1464ms total)
T14B0 002:239 JLINK_WriteMem(0x20000164, 0x0400 Bytes, ...) -- Data:  FF 49 08 44 4F EA 49 11 41 EA D9 61 08 44 80 44 ... -- CPU_WriteMem(1024 bytes @ 0x20000164)  returns 0x400 (0007ms, 1464ms total)
T14B0 002:246 JLINK_WriteReg(R0, 0x08002400)  returns 0x00 (0000ms, 1471ms total)
T14B0 002:246 JLINK_WriteReg(R1, 0x00000400)  returns 0x00 (0000ms, 1471ms total)
T14B0 002:246 JLINK_WriteReg(R2, 0x20000164)  returns 0x00 (0000ms, 1471ms total)
T14B0 002:246 JLINK_WriteReg(R3, 0x00000000)  returns 0x00 (0000ms, 1471ms total)
T14B0 002:246 JLINK_WriteReg(R4, 0x00000000)  returns 0x00 (0000ms, 1471ms total)
T14B0 002:246 JLINK_WriteReg(R5, 0x00000000)  returns 0x00 (0000ms, 1471ms total)
T14B0 002:246 JLINK_WriteReg(R6, 0x00000000)  returns 0x00 (0000ms, 1471ms total)
T14B0 002:246 JLINK_WriteReg(R7, 0x00000000)  returns 0x00 (0000ms, 1471ms total)
T14B0 002:246 JLINK_WriteReg(R8, 0x00000000)  returns 0x00 (0000ms, 1471ms total)
T14B0 002:246 JLINK_WriteReg(R9, 0x20000160)  returns 0x00 (0000ms, 1471ms total)
T14B0 002:246 JLINK_WriteReg(R10, 0x00000000)  returns 0x00 (0000ms, 1471ms total)
T14B0 002:246 JLINK_WriteReg(R11, 0x00000000)  returns 0x00 (0000ms, 1471ms total)
T14B0 002:246 JLINK_WriteReg(R12, 0x00000000)  returns 0x00 (0000ms, 1471ms total)
T14B0 002:246 JLINK_WriteReg(R13, 0x20000800)  returns 0x00 (0000ms, 1471ms total)
T14B0 002:246 JLINK_WriteReg(R14, 0x20000001)  returns 0x00 (0000ms, 1471ms total)
T14B0 002:246 JLINK_WriteReg(R15, 0x200000F4)  returns 0x00 (0000ms, 1471ms total)
T14B0 002:246 JLINK_WriteReg(XPSR, 0x01000000)  returns 0x00 (0000ms, 1471ms total)
T14B0 002:246 JLINK_WriteReg(MSP, 0x20000800)  returns 0x00 (0000ms, 1471ms total)
T14B0 002:246 JLINK_WriteReg(PSP, 0x20000800)  returns 0x00 (0000ms, 1471ms total)
T14B0 002:246 JLINK_WriteReg(CFBP, 0x00000000)  returns 0x00 (0000ms, 1471ms total)
T14B0 002:246 JLINK_SetBPEx(Addr = 0x20000000, Type = 0xFFFFFFF2)  returns 0x0000000E (0000ms, 1471ms total)
T14B0 002:246 JLINK_Go() -- CPU_WriteMem(4 bytes @ 0xE0002008) -- CPU_WriteMem(4 bytes @ 0xE000200C) -- CPU_WriteMem(4 bytes @ 0xE0002010) -- CPU_WriteMem(4 bytes @ 0xE0002014) -- CPU_WriteMem(4 bytes @ 0xE0002018) -- CPU_WriteMem(4 bytes @ 0xE000201C) >0x310 JTAG> >0x218 JTAG> >0x218 JTAG> >0x218 JTAG> >0x218 JTAG> >0x218 JTAG> >0x240 JTAG> >0x240 JTAG> (0026ms, 1471ms total)
T14B0 002:272 JLINK_IsHalted() >0x198 JTAG>  returns FALSE (0002ms, 1497ms total)
T14B0 002:325 JLINK_IsHalted() >0x198 JTAG> >0x17A8 JTAG> -- CPU_ReadMem(2 bytes @ 0x20000000)  returns TRUE (0009ms, 1497ms total)
T14B0 002:334 JLINK_ReadReg(R15)  returns 0x20000000 (0000ms, 1497ms total)
T14B0 002:334 JLINK_ClrBPEx(BPHandle = 0x0000000E)  returns 0x00 (0000ms, 1497ms total)
T14B0 002:334 JLINK_ReadReg(R0)  returns 0x00000000 (0000ms, 1497ms total)
T14B0 002:334 JLINK_WriteMem(0x20000164, 0x0400 Bytes, ...) -- Data:  99 79 82 5A A1 EB D9 6E A8 07 40 EA 95 05 21 6A ... -- CPU_WriteMem(1024 bytes @ 0x20000164)  returns 0x400 (0008ms, 1497ms total)
T14B0 002:342 JLINK_WriteReg(R0, 0x08002800)  returns 0x00 (0000ms, 1505ms total)
T14B0 002:342 JLINK_WriteReg(R1, 0x00000400)  returns 0x00 (0000ms, 1505ms total)
T14B0 002:342 JLINK_WriteReg(R2, 0x20000164)  returns 0x00 (0000ms, 1505ms total)
T14B0 002:342 JLINK_WriteReg(R3, 0x00000000)  returns 0x00 (0000ms, 1505ms total)
T14B0 002:342 JLINK_WriteReg(R4, 0x00000000)  returns 0x00 (0000ms, 1505ms total)
T14B0 002:342 JLINK_WriteReg(R5, 0x00000000)  returns 0x00 (0000ms, 1505ms total)
T14B0 002:342 JLINK_WriteReg(R6, 0x00000000)  returns 0x00 (0000ms, 1505ms total)
T14B0 002:342 JLINK_WriteReg(R7, 0x00000000)  returns 0x00 (0000ms, 1505ms total)
T14B0 002:342 JLINK_WriteReg(R8, 0x00000000)  returns 0x00 (0000ms, 1505ms total)
T14B0 002:342 JLINK_WriteReg(R9, 0x20000160)  returns 0x00 (0000ms, 1505ms total)
T14B0 002:342 JLINK_WriteReg(R10, 0x00000000)  returns 0x00 (0000ms, 1505ms total)
T14B0 002:342 JLINK_WriteReg(R11, 0x00000000)  returns 0x00 (0000ms, 1505ms total)
T14B0 002:342 JLINK_WriteReg(R12, 0x00000000)  returns 0x00 (0000ms, 1505ms total)
T14B0 002:342 JLINK_WriteReg(R13, 0x20000800)  returns 0x00 (0000ms, 1505ms total)
T14B0 002:342 JLINK_WriteReg(R14, 0x20000001)  returns 0x00 (0000ms, 1505ms total)
T14B0 002:342 JLINK_WriteReg(R15, 0x200000F4)  returns 0x00 (0000ms, 1505ms total)
T14B0 002:343 JLINK_WriteReg(XPSR, 0x01000000)  returns 0x00 (0000ms, 1506ms total)
T14B0 002:343 JLINK_WriteReg(MSP, 0x20000800)  returns 0x00 (0000ms, 1506ms total)
T14B0 002:343 JLINK_WriteReg(PSP, 0x20000800)  returns 0x00 (0000ms, 1506ms total)
T14B0 002:343 JLINK_WriteReg(CFBP, 0x00000000)  returns 0x00 (0000ms, 1506ms total)
T14B0 002:343 JLINK_SetBPEx(Addr = 0x20000000, Type = 0xFFFFFFF2)  returns 0x0000000F (0000ms, 1506ms total)
T14B0 002:343 JLINK_Go() -- CPU_WriteMem(4 bytes @ 0xE0002008) -- CPU_WriteMem(4 bytes @ 0xE000200C) -- CPU_WriteMem(4 bytes @ 0xE0002010) -- CPU_WriteMem(4 bytes @ 0xE0002014) -- CPU_WriteMem(4 bytes @ 0xE0002018) -- CPU_WriteMem(4 bytes @ 0xE000201C) >0x310 JTAG> >0x218 JTAG> >0x218 JTAG> >0x218 JTAG> >0x218 JTAG> >0x218 JTAG> >0x240 JTAG> >0x240 JTAG> (0024ms, 1506ms total)
T14B0 002:367 JLINK_IsHalted() >0x198 JTAG>  returns FALSE (0001ms, 1530ms total)
T14B0 002:419 JLINK_IsHalted() >0x198 JTAG> >0x17A8 JTAG> -- CPU_ReadMem(2 bytes @ 0x20000000)  returns TRUE (0010ms, 1530ms total)
T14B0 002:429 JLINK_ReadReg(R15)  returns 0x20000000 (0000ms, 1530ms total)
T14B0 002:429 JLINK_ClrBPEx(BPHandle = 0x0000000F)  returns 0x00 (0000ms, 1530ms total)
T14B0 002:429 JLINK_ReadReg(R0)  returns 0x00000000 (0000ms, 1530ms total)
T14B0 002:429 JLINK_WriteMem(0x20000164, 0x0400 Bytes, ...) -- Data:  10 43 08 44 A1 63 0D 49 08 44 4F EA 49 11 41 EA ... -- CPU_WriteMem(1024 bytes @ 0x20000164)  returns 0x400 (0008ms, 1530ms total)
T14B0 002:437 JLINK_WriteReg(R0, 0x08002C00)  returns 0x00 (0000ms, 1538ms total)
T14B0 002:437 JLINK_WriteReg(R1, 0x00000400)  returns 0x00 (0000ms, 1538ms total)
T14B0 002:437 JLINK_WriteReg(R2, 0x20000164)  returns 0x00 (0000ms, 1538ms total)
T14B0 002:437 JLINK_WriteReg(R3, 0x00000000)  returns 0x00 (0000ms, 1538ms total)
T14B0 002:437 JLINK_WriteReg(R4, 0x00000000)  returns 0x00 (0000ms, 1538ms total)
T14B0 002:437 JLINK_WriteReg(R5, 0x00000000)  returns 0x00 (0000ms, 1538ms total)
T14B0 002:437 JLINK_WriteReg(R6, 0x00000000)  returns 0x00 (0000ms, 1538ms total)
T14B0 002:437 JLINK_WriteReg(R7, 0x00000000)  returns 0x00 (0000ms, 1538ms total)
T14B0 002:437 JLINK_WriteReg(R8, 0x00000000)  returns 0x00 (0000ms, 1538ms total)
T14B0 002:437 JLINK_WriteReg(R9, 0x20000160)  returns 0x00 (0000ms, 1538ms total)
T14B0 002:437 JLINK_WriteReg(R10, 0x00000000)  returns 0x00 (0000ms, 1538ms total)
T14B0 002:437 JLINK_WriteReg(R11, 0x00000000)  returns 0x00 (0000ms, 1538ms total)
T14B0 002:437 JLINK_WriteReg(R12, 0x00000000)  returns 0x00 (0000ms, 1538ms total)
T14B0 002:437 JLINK_WriteReg(R13, 0x20000800)  returns 0x00 (0000ms, 1538ms total)
T14B0 002:437 JLINK_WriteReg(R14, 0x20000001)  returns 0x00 (0000ms, 1538ms total)
T14B0 002:437 JLINK_WriteReg(R15, 0x200000F4)  returns 0x00 (0000ms, 1538ms total)
T14B0 002:437 JLINK_WriteReg(XPSR, 0x01000000)  returns 0x00 (0000ms, 1538ms total)
T14B0 002:437 JLINK_WriteReg(MSP, 0x20000800)  returns 0x00 (0000ms, 1538ms total)
T14B0 002:437 JLINK_WriteReg(PSP, 0x20000800)  returns 0x00 (0000ms, 1538ms total)
T14B0 002:437 JLINK_WriteReg(CFBP, 0x00000000)  returns 0x00 (0000ms, 1538ms total)
T14B0 002:437 JLINK_SetBPEx(Addr = 0x20000000, Type = 0xFFFFFFF2)  returns 0x00000010 (0000ms, 1538ms total)
